# vsim -vopt work.apb_top -voptargs="+acc=npr" -assertdebug -l src/simulation/log_file.log -coverage -c -do "coverage save -onexit -assert -directive -cvg -codeAll src/simulation/ucdb_file.ucdb; run -all; exit" 
# Start time: 15:49:38 on Jul 11,2026
# ** Note: (vsim-3813) Design is being optimized due to module recompilation...
# //  Questa Sim
# //  Version 10.6c linux Jul 25 2017
# //
# //  Copyright 1991-2017 Mentor Graphics Corporation
# //  All Rights Reserved.
# //
# //  QuestaSim and its associated documentation contain trade
# //  secrets and commercial or financial information that are the property of
# //  Mentor Graphics Corporation and are privileged, confidential,
# //  and exempt from disclosure under the Freedom of Information Act,
# //  5 U.S.C. Section 552. Furthermore, this information
# //  is prohibited from disclosure under the Trade Secrets Act,
# //  18 U.S.C. Section 1905.
# //
# Loading sv_std.std
# Loading work.apb_inf(fast)
# Loading work.apb_package(fast)
# Loading work.apb_top(fast)
# Loading work.apb_inf(fast)
# Loading work.apb_master(fast)
# coverage save -onexit -assert -directive -cvg -codeAll src/simulation/ucdb_file.ucdb
#  run -all
# 
# GENERATOR randomized 0 				time =0
# tula 0
# transfer=1, write_read=1, addr_in=153, wdata_in=a7bf7cdf, strb_in =0
# PRDATA=10f8cea6, PREADY=0, PSLVERR=0
# 
# GENERATOR randomized 1 				time =0
# tula 1
# transfer=1, write_read=1, addr_in=153, wdata_in=a7bf7cdf, strb_in =0
# PRDATA=2cc6144f, PREADY=1, PSLVERR=0
# 
# GENERATOR randomized 2 				time =0
# tula 0
# transfer=1, write_read=1, addr_in= 80, wdata_in=dcad23a9, strb_in =0
# PRDATA=56d7f69f, PREADY=0, PSLVERR=0
# 
# GENERATOR randomized 3 				time =0
# tula 1
# transfer=1, write_read=1, addr_in= 80, wdata_in=dcad23a9, strb_in =0
# PRDATA=adb13787, PREADY=1, PSLVERR=0
# 
# apb_package.apb_driver.start Driver ran at iteration 0		time = 35
# apb_package.apb_monitor.start MONITOR					time =35
# ----------------------------------------------------------------------------------------
# transfer                 1                    | PADDR                    'h0
# write_read               1                    | PSEL                     0
# addr_in                  'h99                 | PENABLE                  0
# wdata_in                 'ha7bf7cdf           | PWRITE                   0
# strb_in                  'h0                  | PWDATA                   'h0
# PRDATA                   'h10f8cea6           | PSTRB                    'h0
# PREADY                   0                    | rdata_out                'h0
# PSLVERR                  0                    | transfer_done            0
#                                               | error                    0
# ========================================================================================
# apb_package.apb_scoreboard.start SCOREBOARD  				time = 35
# ERROR WARNING ERROR WARNING ERROR WARNING transfer_done=0   trans_cnt=1    cnt=1
# ***************************************************************************************************       DATA COMPARE SUCCESSFUL MATCH=          1
# 
# apb_package.apb_driver.start Driver ran at iteration 0		time = 45
# apb_package.apb_monitor.start MONITOR					time =45
# ----------------------------------------------------------------------------------------
# transfer                 1                    | PADDR                    'h0
# write_read               1                    | PSEL                     1
# addr_in                  'h99                 | PENABLE                  0
# wdata_in                 'ha7bf7cdf           | PWRITE                   0
# strb_in                  'h0                  | PWDATA                   'h0
# PRDATA                   'h2cc6144f           | PSTRB                    'h0
# PREADY                   1                    | rdata_out                'h0
# PSLVERR                  0                    | transfer_done            0
#                                               | error                    0
# ========================================================================================
# apb_package.apb_scoreboard.start SCOREBOARD  				time = 45
# ERROR WARNING ERROR WARNING ERROR WARNING transfer_done=0   trans_cnt=2    cnt=2
# ***************************************************************************************************       DATA COMPARE SUCCESSFUL MATCH=          2
# apb_package.apb_monitor.start MONITOR					time =55
# ----------------------------------------------------------------------------------------
# transfer                 1                    | PADDR                    'h99
# write_read               1                    | PSEL                     1
# addr_in                  'h99                 | PENABLE                  1
# wdata_in                 'ha7bf7cdf           | PWRITE                   1
# strb_in                  'h0                  | PWDATA                   'ha7bf7cdf
# PRDATA                   'h2cc6144f           | PSTRB                    'h0
# PREADY                   1                    | rdata_out                'h0
# PSLVERR                  0                    | transfer_done            0
#                                               | error                    0
# ========================================================================================
# apb_package.apb_scoreboard.start SCOREBOARD  				time = 55
# ERROR WARNING ERROR WARNING ERROR WARNING transfer_done=0   trans_cnt=3    cnt=3
# ***************************************************************************************************       DATA COMPARE SUCCESSFUL MATCH=          3
# 
# apb_package.apb_driver.start Driver ran at iteration 1		time = 65
# apb_package.apb_monitor.start MONITOR					time =65
# ----------------------------------------------------------------------------------------
# transfer                 1                    | PADDR                    'h99
# write_read               1                    | PSEL                     0
# addr_in                  'h50                 | PENABLE                  0
# wdata_in                 'hdcad23a9           | PWRITE                   1
# strb_in                  'h0                  | PWDATA                   'ha7bf7cdf
# PRDATA                   'h56d7f69f           | PSTRB                    'h0
# PREADY                   0                    | rdata_out                'h0
# PSLVERR                  0                    | transfer_done            1
#                                               | error                    0
# ========================================================================================
# apb_package.apb_scoreboard.start SCOREBOARD  				time = 65
# ERROR WARNING ERROR WARNING ERROR WARNING transfer_done=1   trans_cnt=4    cnt=4
# ***************************************************************************************************       DATA COMPARE SUCCESSFUL MATCH=          4
# 
# apb_package.apb_driver.start Driver ran at iteration 1		time = 75
# apb_package.apb_monitor.start MONITOR					time =75
# ----------------------------------------------------------------------------------------
# transfer                 1                    | PADDR                    'h99
# write_read               1                    | PSEL                     1
# addr_in                  'h50                 | PENABLE                  0
# wdata_in                 'hdcad23a9           | PWRITE                   1
# strb_in                  'h0                  | PWDATA                   'ha7bf7cdf
# PRDATA                   'hadb13787           | PSTRB                    'h0
# PREADY                   1                    | rdata_out                'h0
# PSLVERR                  0                    | transfer_done            0
#                                               | error                    0
# ========================================================================================
# apb_package.apb_scoreboard.start SCOREBOARD  				time = 75
# ERROR WARNING ERROR WARNING ERROR WARNING transfer_done=0   trans_cnt=5    cnt=2
# ***************************************************************************************************       DATA COMPARE SUCCESSFUL MATCH=          5
# apb_package.apb_monitor.start MONITOR					time =85
# ----------------------------------------------------------------------------------------
# transfer                 1                    | PADDR                    'h50
# write_read               1                    | PSEL                     1
# addr_in                  'h50                 | PENABLE                  1
# wdata_in                 'hdcad23a9           | PWRITE                   1
# strb_in                  'h0                  | PWDATA                   'hdcad23a9
# PRDATA                   'hadb13787           | PSTRB                    'h0
# PREADY                   1                    | rdata_out                'h0
# PSLVERR                  0                    | transfer_done            0
#                                               | error                    0
# ========================================================================================
# apb_package.apb_scoreboard.start SCOREBOARD  				time = 85
# ERROR WARNING ERROR WARNING ERROR WARNING transfer_done=0   trans_cnt=6    cnt=3
# ***************************************************************************************************       DATA COMPARE SUCCESSFUL MATCH=          6
# apb_package.apb_monitor.start MONITOR					time =95
# ----------------------------------------------------------------------------------------
# transfer                 1                    | PADDR                    'h50
# write_read               1                    | PSEL                     0
# addr_in                  'h50                 | PENABLE                  0
# wdata_in                 'hdcad23a9           | PWRITE                   1
# strb_in                  'h0                  | PWDATA                   'hdcad23a9
# PRDATA                   'hadb13787           | PSTRB                    'h0
# PREADY                   1                    | rdata_out                'h0
# PSLVERR                  0                    | transfer_done            1
#                                               | error                    0
# ========================================================================================
# apb_package.apb_scoreboard.start SCOREBOARD  				time = 95
# ERROR WARNING ERROR WARNING ERROR WARNING transfer_done=1   trans_cnt=7    cnt=4
# ***************************************************************************************************       DATA COMPARE SUCCESSFUL MATCH=          7
# apb_package.apb_monitor.start MONITOR					time =105
# ----------------------------------------------------------------------------------------
# transfer                 1                    | PADDR                    'h50
# write_read               1                    | PSEL                     1
# addr_in                  'h50                 | PENABLE                  0
# wdata_in                 'hdcad23a9           | PWRITE                   1
# strb_in                  'h0                  | PWDATA                   'hdcad23a9
# PRDATA                   'hadb13787           | PSTRB                    'h0
# PREADY                   1                    | rdata_out                'h0
# PSLVERR                  0                    | transfer_done            0
#                                               | error                    0
# ========================================================================================
# apb_package.apb_scoreboard.start SCOREBOARD  				time = 105
# ERROR WARNING ERROR WARNING ERROR WARNING transfer_done=0   trans_cnt=8    cnt=2
# ***************************************************************************************************       DATA COMPARE SUCCESSFUL MATCH=          8
# apb_package.apb_monitor.start MONITOR					time =115
# ----------------------------------------------------------------------------------------
# transfer                 1                    | PADDR                    'h50
# write_read               1                    | PSEL                     1
# addr_in                  'h50                 | PENABLE                  1
# wdata_in                 'hdcad23a9           | PWRITE                   1
# strb_in                  'h0                  | PWDATA                   'hdcad23a9
# PRDATA                   'hadb13787           | PSTRB                    'h0
# PREADY                   1                    | rdata_out                'h0
# PSLVERR                  0                    | transfer_done            0
#                                               | error                    0
# ========================================================================================
# apb_package.apb_scoreboard.start SCOREBOARD  				time = 115
# ERROR WARNING ERROR WARNING ERROR WARNING transfer_done=0   trans_cnt=9    cnt=3
# ***************************************************************************************************       DATA COMPARE SUCCESSFUL MATCH=          9
# apb_package.apb_monitor.start MONITOR					time =125
# ----------------------------------------------------------------------------------------
# transfer                 1                    | PADDR                    'h50
# write_read               1                    | PSEL                     0
# addr_in                  'h50                 | PENABLE                  0
# wdata_in                 'hdcad23a9           | PWRITE                   1
# strb_in                  'h0                  | PWDATA                   'hdcad23a9
# PRDATA                   'hadb13787           | PSTRB                    'h0
# PREADY                   1                    | rdata_out                'h0
# PSLVERR                  0                    | transfer_done            1
#                                               | error                    0
# ========================================================================================
# apb_package.apb_scoreboard.start SCOREBOARD  				time = 125
# ERROR WARNING ERROR WARNING ERROR WARNING transfer_done=1   trans_cnt=10    cnt=4
# ***************************************************************************************************       DATA COMPARE SUCCESSFUL MATCH=         10
# $$$$$$$$$$$$$$$$$$$$$$$$$$$$$$$$$$$$$$$$$$$$$$$$$$$$$$$$$$$$$$$$$$$$$$$$$$$$$$$$$$$$$$$$$$$$$$$$$$$$$$$$$$$$$$$$$$$$$$$$$$$$$$$$$$$
# **********************************************************************************************************************************
# ****************     TOTAL MATCH = 10        *******************************    TOTAL MISMATCH = 0    ***********************
# **********************************************************************************************************************************
# xzvzsv                3000
# ** Note: $finish    : src/verification/apb_top.sv(47)
#    Time: 3 us  Iteration: 0  Instance: /apb_top
# Saving coverage database on exit...
# End time: 15:49:39 on Jul 11,2026, Elapsed time: 0:00:01
# Errors: 0, Warnings: 0
