# vsim -vopt work.apb_top -voptargs="+acc=npr" -assertdebug -l src/simulation/log_file.log -coverage -c -do "coverage save -onexit -assert -directive -cvg -codeAll src/simulation/ucdb_file.ucdb; run -all; exit" 
# Start time: 23:52:58 on Jul 10,2026
# ** Note: (vsim-3813) Design is being optimized due to module recompilation...
# //  Questa Sim
# //  Version 10.6c linux Jul 25 2017
# //
# //  Copyright 1991-2017 Mentor Graphics Corporation
# //  All Rights Reserved.
# //
# //  QuestaSim and its associated documentation contain trade
# //  secrets and commercial or financial information that are the property of
# //  Mentor Graphics Corporation and are privileged, confidential,
# //  and exempt from disclosure under the Freedom of Information Act,
# //  5 U.S.C. Section 552. Furthermore, this information
# //  is prohibited from disclosure under the Trade Secrets Act,
# //  18 U.S.C. Section 1905.
# //
# Loading sv_std.std
# Loading work.apb_inf(fast)
# Loading work.apb_package(fast)
# Loading work.apb_top(fast)
# Loading work.apb_inf(fast)
# Loading work.apb_master(fast)
# coverage save -onexit -assert -directive -cvg -codeAll src/simulation/ucdb_file.ucdb
#  run -all
# 
# GENERATOR randomized 0 				time =0
# transfer=1, write_read=1, addr_in=153, wdata_in=a7bf7cdf, strb_in =0
# PRDATA=10f8cea6, PREADY=0, PSLVERR=0
# 
# GENERATOR randomized 1 				time =0
# transfer=1, write_read=1, addr_in= 86, wdata_in=42c8d007, strb_in =0
# PRDATA=2cc6144f, PREADY=0, PSLVERR=0
# 
# GENERATOR randomized 2 				time =0
# transfer=1, write_read=1, addr_in= 80, wdata_in=dcad23a9, strb_in =0
# PRDATA=56d7f69f, PREADY=1, PSLVERR=0
# 
# GENERATOR randomized 3 				time =0
# transfer=1, write_read=1, addr_in=253, wdata_in=43549a6f, strb_in =0
# PRDATA=adb13787, PREADY=0, PSLVERR=0
# 
# GENERATOR randomized 4 				time =0
# transfer=1, write_read=1, addr_in=145, wdata_in=2c5774ea, strb_in =0
# PRDATA=9592a3d, PREADY=0, PSLVERR=0
# 
# apb_package.apb_driver.start Driver ran at iteration 0		time = 25
# STARTING DRIVER TRASANCTION
# ********************************************************************************************************************************
# ******** driver_sending time= 25 **********
# transfer   = 1
# write_read = 1
# addr_in    = 'h99
# wdata_in   = 'ha7bf7cdf
# strb_in    = 'h0
# PRDATA     = 'h10f8cea6
# PREADY     = 0
# PSLVERR    = 0
# *********************************
# 
# apb_package.apb_monitor.start MONITOR					time =25
# ***** INPUTS*****
# transfer      = 0
# write_read    = 0
# addr_in       = 'h0
# wdata_in      = 'h0
# strb_in       = 'h0
# PRDATA        = 'h0
# PREADY        = 0
# PSLVERR       = 0 
# 
# ****** OUTPUTS ******
# PADDR         = 'h0 
# PSEL          = 0
# PENABLE       = 0 
# PWRITE        = 0
# PWDATA        = 'h0 
# PSTRB         = 'h0
# rdata_out     = 'h0 
# transfer_done = 0 
# error         = 0
# 
# apb_package.apb_monitor.start MONITOR					time =35
# ***** INPUTS*****
# transfer      = 1
# write_read    = 1
# addr_in       = 'h99
# wdata_in      = 'ha7bf7cdf
# strb_in       = 'h0
# PRDATA        = 'h10f8cea6
# PREADY        = 0
# PSLVERR       = 0 
# 
# ****** OUTPUTS ******
# PADDR         = 'h0 
# PSEL          = 0
# PENABLE       = 0 
# PWRITE        = 0
# PWDATA        = 'h0 
# PSTRB         = 'h0
# rdata_out     = 'h0 
# transfer_done = 0 
# error         = 0
# 
# apb_package.apb_monitor.start MONITOR					time =45
# ***** INPUTS*****
# transfer      = 1
# write_read    = 1
# addr_in       = 'h99
# wdata_in      = 'ha7bf7cdf
# strb_in       = 'h0
# PRDATA        = 'h10f8cea6
# PREADY        = 0
# PSLVERR       = 0 
# 
# ****** OUTPUTS ******
# PADDR         = 'h0 
# PSEL          = 1
# PENABLE       = 0 
# PWRITE        = 0
# PWDATA        = 'h0 
# PSTRB         = 'h0
# rdata_out     = 'h0 
# transfer_done = 0 
# error         = 0
# 
# apb_package.apb_monitor.start MONITOR					time =55
# ***** INPUTS*****
# transfer      = 1
# write_read    = 1
# addr_in       = 'h99
# wdata_in      = 'ha7bf7cdf
# strb_in       = 'h0
# PRDATA        = 'h10f8cea6
# PREADY        = 0
# PSLVERR       = 0 
# 
# ****** OUTPUTS ******
# PADDR         = 'h99 
# PSEL          = 1
# PENABLE       = 1 
# PWRITE        = 1
# PWDATA        = 'ha7bf7cdf 
# PSTRB         = 'h0
# rdata_out     = 'h0 
# transfer_done = 0 
# error         = 0
# 
# apb_package.apb_monitor.start MONITOR					time =65
# ***** INPUTS*****
# transfer      = 1
# write_read    = 1
# addr_in       = 'h99
# wdata_in      = 'ha7bf7cdf
# strb_in       = 'h0
# PRDATA        = 'h10f8cea6
# PREADY        = 0
# PSLVERR       = 0 
# 
# ****** OUTPUTS ******
# PADDR         = 'h99 
# PSEL          = 1
# PENABLE       = 1 
# PWRITE        = 1
# PWDATA        = 'ha7bf7cdf 
# PSTRB         = 'h0
# rdata_out     = 'h0 
# transfer_done = 0 
# error         = 0
# 
# apb_package.apb_monitor.start MONITOR					time =75
# ***** INPUTS*****
# transfer      = 1
# write_read    = 1
# addr_in       = 'h99
# wdata_in      = 'ha7bf7cdf
# strb_in       = 'h0
# PRDATA        = 'h10f8cea6
# PREADY        = 0
# PSLVERR       = 0 
# 
# ****** OUTPUTS ******
# PADDR         = 'h99 
# PSEL          = 1
# PENABLE       = 1 
# PWRITE        = 1
# PWDATA        = 'ha7bf7cdf 
# PSTRB         = 'h0
# rdata_out     = 'h0 
# transfer_done = 0 
# error         = 0
# ** Note: $finish    : src/verification/apb_top.sv(46)
#    Time: 80 ns  Iteration: 0  Instance: /apb_top
# Saving coverage database on exit...
# End time: 23:52:59 on Jul 10,2026, Elapsed time: 0:00:01
# Errors: 0, Warnings: 0
