# vsim -vopt work.apb_top -voptargs="+acc=npr" -assertdebug -l src/simulation/log_file.log -coverage -c -do "coverage save -onexit -assert -directive -cvg -codeAll src/simulation/ucdb_file.ucdb; run -all; exit" 
# Start time: 08:44:23 on Jul 10,2026
# ** Note: (vsim-3813) Design is being optimized due to module recompilation...
# ** Warning: src/verification/apb_top.sv(28): (vopt-2685) [TFMPC] - Too few port connections for 'DUV_apb_master'.  Expected 19, found 17.
# ** Warning: src/verification/apb_top.sv(28): (vopt-2718) [TFMPC] - Missing connection for port 'rst_n'.
# ** Warning: src/verification/apb_top.sv(28): (vopt-2718) [TFMPC] - Missing connection for port 'clk'.
# ** Warning: src/verification/apb_generator.sv(14): (vopt-2240) Treating stand-alone use of function 'randomize' as an implicit VOID cast.
# //  Questa Sim
# //  Version 10.6c linux Jul 25 2017
# //
# //  Copyright 1991-2017 Mentor Graphics Corporation
# //  All Rights Reserved.
# //
# //  QuestaSim and its associated documentation contain trade
# //  secrets and commercial or financial information that are the property of
# //  Mentor Graphics Corporation and are privileged, confidential,
# //  and exempt from disclosure under the Freedom of Information Act,
# //  5 U.S.C. Section 552. Furthermore, this information
# //  is prohibited from disclosure under the Trade Secrets Act,
# //  18 U.S.C. Section 1905.
# //
# Loading sv_std.std
# Loading work.apb_inf(fast)
# Loading work.apb_package(fast)
# Loading work.apb_top(fast)
# Loading work.apb_inf(fast)
# Loading work.apb_master(fast)
# coverage save -onexit -assert -directive -cvg -codeAll src/simulation/ucdb_file.ucdb
#  run -all
# GENERATOR randomized 0 				time =0
# transfer=1, write_read=1, addr_in=4217512163, wdata_in=2814344415, strb_in =0
# PRDATA=284741286, PREADY=1, PSLVERR=0
# GENERATOR randomized 1 				time =0
# transfer=1, write_read=1, addr_in=3714297672, wdata_in=1120456711, strb_in =0
# PRDATA=751178831, PREADY=1, PSLVERR=0
# GENERATOR randomized 2 				time =0
# transfer=1, write_read=1, addr_in= 422746204, wdata_in=3702334377, strb_in =0
# PRDATA=1456993951, PREADY=1, PSLVERR=0
# GENERATOR randomized 3 				time =0
# transfer=1, write_read=1, addr_in=  53372554, wdata_in=1129618031, strb_in =0
# PRDATA=2914072455, PREADY=1, PSLVERR=0
# GENERATOR randomized 4 				time =0
# transfer=1, write_read=1, addr_in=1418381006, wdata_in=743929066, strb_in =0
# PRDATA=156838461, PREADY=1, PSLVERR=0
# GENERATOR randomized 5 				time =0
# transfer=1, write_read=1, addr_in= 401219491, wdata_in=606131307, strb_in =0
# PRDATA=2926804228, PREADY=1, PSLVERR=0
# GENERATOR randomized 6 				time =0
# transfer=1, write_read=1, addr_in=1252453275, wdata_in=513881212, strb_in =0
# PRDATA=2801388669, PREADY=1, PSLVERR=0
# GENERATOR randomized 7 				time =0
# transfer=1, write_read=1, addr_in=1494049821, wdata_in=2003685435, strb_in =0
# PRDATA=2787231766, PREADY=1, PSLVERR=0
# GENERATOR randomized 8 				time =0
# transfer=1, write_read=1, addr_in=1586680413, wdata_in=155309594, strb_in =0
# PRDATA=2202077731, PREADY=1, PSLVERR=0
# GENERATOR randomized 9 				time =0
# transfer=1, write_read=1, addr_in=1369039789, wdata_in=243480877, strb_in =0
# PRDATA=2607449918, PREADY=1, PSLVERR=0
# GENERATOR randomized 10 				time =0
# transfer=1, write_read=1, addr_in=1766221781, wdata_in=3259389067, strb_in =0
# PRDATA=2529430488, PREADY=1, PSLVERR=0
# GENERATOR randomized 11 				time =0
# transfer=1, write_read=1, addr_in= 988060892, wdata_in=3589464872, strb_in =0
# PRDATA=1429248979, PREADY=1, PSLVERR=0
# GENERATOR randomized 12 				time =0
# transfer=1, write_read=1, addr_in=3044990528, wdata_in=1155217694, strb_in =0
# PRDATA=812283449, PREADY=1, PSLVERR=0
# GENERATOR randomized 13 				time =0
# transfer=1, write_read=1, addr_in=2223473712, wdata_in=3809456024, strb_in =0
# PRDATA=3090262376, PREADY=1, PSLVERR=0
# GENERATOR randomized 14 				time =0
# transfer=1, write_read=1, addr_in=3225881671, wdata_in=2929936322, strb_in =0
# PRDATA=2932347525, PREADY=1, PSLVERR=0
# GENERATOR randomized 15 				time =0
# transfer=1, write_read=1, addr_in=2989260653, wdata_in=2202381995, strb_in =0
# PRDATA=492761736, PREADY=1, PSLVERR=0
# GENERATOR randomized 16 				time =0
# transfer=1, write_read=1, addr_in= 913640488, wdata_in=280020452, strb_in =0
# PRDATA=3951931376, PREADY=1, PSLVERR=0
# GENERATOR randomized 17 				time =0
# transfer=1, write_read=1, addr_in=3567889910, wdata_in=2023997214, strb_in =0
# PRDATA=197216215, PREADY=1, PSLVERR=0
# GENERATOR randomized 18 				time =0
# transfer=1, write_read=1, addr_in=3625304328, wdata_in=845310835, strb_in =0
# PRDATA=277479827, PREADY=1, PSLVERR=0
# GENERATOR randomized 19 				time =0
# transfer=1, write_read=1, addr_in=1966828203, wdata_in=1646792862, strb_in =0
# PRDATA=2373697215, PREADY=1, PSLVERR=0
# GENERATOR randomized 20 				time =0
# transfer=1, write_read=1, addr_in=  26977644, wdata_in=1890023390, strb_in =0
# PRDATA=4087211153, PREADY=1, PSLVERR=0
# GENERATOR randomized 21 				time =0
# transfer=1, write_read=1, addr_in= 604891091, wdata_in=3953591345, strb_in =0
# PRDATA=4010495280, PREADY=1, PSLVERR=0
# GENERATOR randomized 22 				time =0
# transfer=1, write_read=1, addr_in=1013402792, wdata_in=1740962641, strb_in =0
# PRDATA=270378948, PREADY=1, PSLVERR=0
# GENERATOR randomized 23 				time =0
# transfer=1, write_read=1, addr_in=3018472747, wdata_in=1838730712, strb_in =0
# PRDATA=3131861941, PREADY=1, PSLVERR=0
# GENERATOR randomized 24 				time =0
# transfer=1, write_read=1, addr_in=1056280472, wdata_in=4139092267, strb_in =0
# PRDATA=817201148, PREADY=1, PSLVERR=0
# GENERATOR randomized 25 				time =0
# transfer=1, write_read=1, addr_in=2025365199, wdata_in=4269830406, strb_in =0
# PRDATA=3649617337, PREADY=1, PSLVERR=0
# GENERATOR randomized 26 				time =0
# transfer=1, write_read=1, addr_in=1231331775, wdata_in=3987859497, strb_in =0
# PRDATA=742323740, PREADY=1, PSLVERR=0
# GENERATOR randomized 27 				time =0
# transfer=1, write_read=1, addr_in=3914128045, wdata_in=702172451, strb_in =0
# PRDATA=129386383, PREADY=1, PSLVERR=0
# GENERATOR randomized 28 				time =0
# transfer=1, write_read=1, addr_in= 724191212, wdata_in=627127918, strb_in =0
# PRDATA=3841393721, PREADY=1, PSLVERR=0
# GENERATOR randomized 29 				time =0
# transfer=1, write_read=1, addr_in=1821583777, wdata_in=1823167099, strb_in =0
# PRDATA=1682545921, PREADY=1, PSLVERR=0
# GENERATOR randomized 30 				time =0
# transfer=1, write_read=1, addr_in= 295199469, wdata_in=1564696279, strb_in =0
# PRDATA=3863879327, PREADY=1, PSLVERR=0
# GENERATOR randomized 31 				time =0
# transfer=1, write_read=1, addr_in=1524517821, wdata_in=1828709302, strb_in =0
# PRDATA=3549544718, PREADY=1, PSLVERR=0
# GENERATOR randomized 32 				time =0
# transfer=1, write_read=1, addr_in=1313106758, wdata_in=1892981005, strb_in =0
# PRDATA=2373043004, PREADY=1, PSLVERR=0
# GENERATOR randomized 33 				time =0
# transfer=1, write_read=1, addr_in=2226239856, wdata_in=3837592535, strb_in =0
# PRDATA=884520967, PREADY=1, PSLVERR=0
# GENERATOR randomized 34 				time =0
# transfer=1, write_read=1, addr_in=3469297611, wdata_in=577012734, strb_in =0
# PRDATA=834175595, PREADY=1, PSLVERR=0
# GENERATOR randomized 35 				time =0
# transfer=1, write_read=1, addr_in=3526827241, wdata_in=702256517, strb_in =0
# PRDATA=3569896322, PREADY=1, PSLVERR=0
# GENERATOR randomized 36 				time =0
# transfer=1, write_read=1, addr_in=1858211189, wdata_in=3230531695, strb_in =0
# PRDATA=380251364, PREADY=1, PSLVERR=0
# GENERATOR randomized 37 				time =0
# transfer=1, write_read=1, addr_in=2439523976, wdata_in=3147506785, strb_in =0
# PRDATA=1008634478, PREADY=1, PSLVERR=0
# GENERATOR randomized 38 				time =0
# transfer=1, write_read=1, addr_in=1913457810, wdata_in=3455206661, strb_in =0
# PRDATA=530723062, PREADY=1, PSLVERR=0
# GENERATOR randomized 39 				time =0
# transfer=1, write_read=1, addr_in=4286285512, wdata_in=3351471439, strb_in =0
# PRDATA=1169260000, PREADY=1, PSLVERR=0
# GENERATOR randomized 40 				time =0
# transfer=1, write_read=1, addr_in= 252964370, wdata_in=2110192368, strb_in =0
# PRDATA=1908853568, PREADY=1, PSLVERR=0
# GENERATOR randomized 41 				time =0
# transfer=1, write_read=1, addr_in=3466845666, wdata_in=2415277164, strb_in =0
# PRDATA=556334050, PREADY=1, PSLVERR=0
# GENERATOR randomized 42 				time =0
# transfer=1, write_read=1, addr_in=3982684971, wdata_in=2573064089, strb_in =0
# PRDATA=554515237, PREADY=1, PSLVERR=0
# GENERATOR randomized 43 				time =0
# transfer=1, write_read=1, addr_in=2578688619, wdata_in=1439275259, strb_in =0
# PRDATA=3834454103, PREADY=1, PSLVERR=0
# GENERATOR randomized 44 				time =0
# transfer=1, write_read=1, addr_in=3649896511, wdata_in=2773165343, strb_in =0
# PRDATA=1639155218, PREADY=1, PSLVERR=0
# GENERATOR randomized 45 				time =0
# transfer=1, write_read=1, addr_in=2101816668, wdata_in=1227298223, strb_in =0
# PRDATA=1568328278, PREADY=1, PSLVERR=0
# GENERATOR randomized 46 				time =0
# transfer=1, write_read=1, addr_in= 739790877, wdata_in=2569762039, strb_in =0
# PRDATA=2359814405, PREADY=1, PSLVERR=0
# GENERATOR randomized 47 				time =0
# transfer=1, write_read=1, addr_in=1376903042, wdata_in=3555283494, strb_in =0
# PRDATA=3654298535, PREADY=1, PSLVERR=0
# GENERATOR randomized 48 				time =0
# transfer=1, write_read=1, addr_in=1773705043, wdata_in=3376567221, strb_in =0
# PRDATA=206199315, PREADY=1, PSLVERR=0
# GENERATOR randomized 49 				time =0
# transfer=1, write_read=1, addr_in=1551727059, wdata_in=3808438553, strb_in =0
# PRDATA=750645575, PREADY=1, PSLVERR=0
# 
# apb_package.apb_driver.start Driver ran at iteration 0				time = 70
# STARTING DRIVER TRASANCTION
# ******** driver_sending time= 90 **********
# transfer   = 1
# write_read = 1
# addr_in    = 4217512163
# strb_in    = 0
# PRDATA     = 284741286
# PREADY     = 1
# PSLVERR    = 0
# ********************************************
# 
# apb_package.apb_driver.start Driver ran at iteration 1				time = 90
# STARTING DRIVER TRASANCTION
# 
# apb_package.apb_monitor.start MONITOR		time =90
# PADDR=0 		 PSEL=0
# PENABLE=0 		 PWRITE=0
# PWDATA=0 		 PSTRB=0
# rdata_out=0 		 transfer_done=0 		 error=0
# ******** driver_sending time= 110 **********
# transfer   = 1
# write_read = 1
# addr_in    = 3714297672
# strb_in    = 0
# PRDATA     = 751178831
# PREADY     = 1
# PSLVERR    = 0
# ********************************************
# 
# apb_package.apb_driver.start Driver ran at iteration 2				time = 110
# STARTING DRIVER TRASANCTION
# 
# apb_package.apb_monitor.start MONITOR		time =110
# PADDR=0 		 PSEL=0
# PENABLE=0 		 PWRITE=0
# PWDATA=0 		 PSTRB=0
# rdata_out=0 		 transfer_done=0 		 error=0
# ******** driver_sending time= 130 **********
# transfer   = 1
# write_read = 1
# addr_in    = 422746204
# strb_in    = 0
# PRDATA     = 1456993951
# PREADY     = 1
# PSLVERR    = 0
# ********************************************
# 
# apb_package.apb_driver.start Driver ran at iteration 3				time = 130
# STARTING DRIVER TRASANCTION
# 
# apb_package.apb_monitor.start MONITOR		time =130
# PADDR=0 		 PSEL=0
# PENABLE=0 		 PWRITE=0
# PWDATA=0 		 PSTRB=0
# rdata_out=0 		 transfer_done=0 		 error=0
# ******** driver_sending time= 150 **********
# transfer   = 1
# write_read = 1
# addr_in    = 53372554
# strb_in    = 0
# PRDATA     = 2914072455
# PREADY     = 1
# PSLVERR    = 0
# ********************************************
# 
# apb_package.apb_driver.start Driver ran at iteration 4				time = 150
# STARTING DRIVER TRASANCTION
# 
# apb_package.apb_monitor.start MONITOR		time =150
# PADDR=0 		 PSEL=0
# PENABLE=0 		 PWRITE=0
# PWDATA=0 		 PSTRB=0
# rdata_out=0 		 transfer_done=0 		 error=0
# ******** driver_sending time= 170 **********
# transfer   = 1
# write_read = 1
# addr_in    = 1418381006
# strb_in    = 0
# PRDATA     = 156838461
# PREADY     = 1
# PSLVERR    = 0
# ********************************************
# 
# apb_package.apb_driver.start Driver ran at iteration 5				time = 170
# STARTING DRIVER TRASANCTION
# 
# apb_package.apb_monitor.start MONITOR		time =170
# PADDR=0 		 PSEL=0
# PENABLE=0 		 PWRITE=0
# PWDATA=0 		 PSTRB=0
# rdata_out=0 		 transfer_done=0 		 error=0
# ******** driver_sending time= 190 **********
# transfer   = 1
# write_read = 1
# addr_in    = 401219491
# strb_in    = 0
# PRDATA     = 2926804228
# PREADY     = 1
# PSLVERR    = 0
# ********************************************
# 
# apb_package.apb_driver.start Driver ran at iteration 6				time = 190
# STARTING DRIVER TRASANCTION
# 
# apb_package.apb_monitor.start MONITOR		time =190
# PADDR=0 		 PSEL=0
# PENABLE=0 		 PWRITE=0
# PWDATA=0 		 PSTRB=0
# rdata_out=0 		 transfer_done=0 		 error=0
# ******** driver_sending time= 210 **********
# transfer   = 1
# write_read = 1
# addr_in    = 1252453275
# strb_in    = 0
# PRDATA     = 2801388669
# PREADY     = 1
# PSLVERR    = 0
# ********************************************
# 
# apb_package.apb_driver.start Driver ran at iteration 7				time = 210
# STARTING DRIVER TRASANCTION
# 
# apb_package.apb_monitor.start MONITOR		time =210
# PADDR=0 		 PSEL=0
# PENABLE=0 		 PWRITE=0
# PWDATA=0 		 PSTRB=0
# rdata_out=0 		 transfer_done=0 		 error=0
# ******** driver_sending time= 230 **********
# transfer   = 1
# write_read = 1
# addr_in    = 1494049821
# strb_in    = 0
# PRDATA     = 2787231766
# PREADY     = 1
# PSLVERR    = 0
# ********************************************
# 
# apb_package.apb_driver.start Driver ran at iteration 8				time = 230
# STARTING DRIVER TRASANCTION
# 
# apb_package.apb_monitor.start MONITOR		time =230
# PADDR=0 		 PSEL=0
# PENABLE=0 		 PWRITE=0
# PWDATA=0 		 PSTRB=0
# rdata_out=0 		 transfer_done=0 		 error=0
# ******** driver_sending time= 250 **********
# transfer   = 1
# write_read = 1
# addr_in    = 1586680413
# strb_in    = 0
# PRDATA     = 2202077731
# PREADY     = 1
# PSLVERR    = 0
# ********************************************
# 
# apb_package.apb_driver.start Driver ran at iteration 9				time = 250
# STARTING DRIVER TRASANCTION
# 
# apb_package.apb_monitor.start MONITOR		time =250
# PADDR=0 		 PSEL=0
# PENABLE=0 		 PWRITE=0
# PWDATA=0 		 PSTRB=0
# rdata_out=0 		 transfer_done=0 		 error=0
# ******** driver_sending time= 270 **********
# transfer   = 1
# write_read = 1
# addr_in    = 1369039789
# strb_in    = 0
# PRDATA     = 2607449918
# PREADY     = 1
# PSLVERR    = 0
# ********************************************
# 
# apb_package.apb_driver.start Driver ran at iteration 10				time = 270
# STARTING DRIVER TRASANCTION
# 
# apb_package.apb_monitor.start MONITOR		time =270
# PADDR=0 		 PSEL=0
# PENABLE=0 		 PWRITE=0
# PWDATA=0 		 PSTRB=0
# rdata_out=0 		 transfer_done=0 		 error=0
# ******** driver_sending time= 290 **********
# transfer   = 1
# write_read = 1
# addr_in    = 1766221781
# strb_in    = 0
# PRDATA     = 2529430488
# PREADY     = 1
# PSLVERR    = 0
# ********************************************
# 
# apb_package.apb_driver.start Driver ran at iteration 11				time = 290
# STARTING DRIVER TRASANCTION
# 
# apb_package.apb_monitor.start MONITOR		time =290
# PADDR=0 		 PSEL=0
# PENABLE=0 		 PWRITE=0
# PWDATA=0 		 PSTRB=0
# rdata_out=0 		 transfer_done=0 		 error=0
# ******** driver_sending time= 310 **********
# transfer   = 1
# write_read = 1
# addr_in    = 988060892
# strb_in    = 0
# PRDATA     = 1429248979
# PREADY     = 1
# PSLVERR    = 0
# ********************************************
# 
# apb_package.apb_driver.start Driver ran at iteration 12				time = 310
# STARTING DRIVER TRASANCTION
# 
# apb_package.apb_monitor.start MONITOR		time =310
# PADDR=0 		 PSEL=0
# PENABLE=0 		 PWRITE=0
# PWDATA=0 		 PSTRB=0
# rdata_out=0 		 transfer_done=0 		 error=0
# ******** driver_sending time= 330 **********
# transfer   = 1
# write_read = 1
# addr_in    = 3044990528
# strb_in    = 0
# PRDATA     = 812283449
# PREADY     = 1
# PSLVERR    = 0
# ********************************************
# 
# apb_package.apb_driver.start Driver ran at iteration 13				time = 330
# STARTING DRIVER TRASANCTION
# 
# apb_package.apb_monitor.start MONITOR		time =330
# PADDR=0 		 PSEL=0
# PENABLE=0 		 PWRITE=0
# PWDATA=0 		 PSTRB=0
# rdata_out=0 		 transfer_done=0 		 error=0
# ******** driver_sending time= 350 **********
# transfer   = 1
# write_read = 1
# addr_in    = 2223473712
# strb_in    = 0
# PRDATA     = 3090262376
# PREADY     = 1
# PSLVERR    = 0
# ********************************************
# 
# apb_package.apb_driver.start Driver ran at iteration 14				time = 350
# STARTING DRIVER TRASANCTION
# 
# apb_package.apb_monitor.start MONITOR		time =350
# PADDR=0 		 PSEL=0
# PENABLE=0 		 PWRITE=0
# PWDATA=0 		 PSTRB=0
# rdata_out=0 		 transfer_done=0 		 error=0
# ******** driver_sending time= 370 **********
# transfer   = 1
# write_read = 1
# addr_in    = 3225881671
# strb_in    = 0
# PRDATA     = 2932347525
# PREADY     = 1
# PSLVERR    = 0
# ********************************************
# 
# apb_package.apb_driver.start Driver ran at iteration 15				time = 370
# STARTING DRIVER TRASANCTION
# 
# apb_package.apb_monitor.start MONITOR		time =370
# PADDR=0 		 PSEL=0
# PENABLE=0 		 PWRITE=0
# PWDATA=0 		 PSTRB=0
# rdata_out=0 		 transfer_done=0 		 error=0
# ******** driver_sending time= 390 **********
# transfer   = 1
# write_read = 1
# addr_in    = 2989260653
# strb_in    = 0
# PRDATA     = 492761736
# PREADY     = 1
# PSLVERR    = 0
# ********************************************
# 
# apb_package.apb_driver.start Driver ran at iteration 16				time = 390
# STARTING DRIVER TRASANCTION
# 
# apb_package.apb_monitor.start MONITOR		time =390
# PADDR=0 		 PSEL=0
# PENABLE=0 		 PWRITE=0
# PWDATA=0 		 PSTRB=0
# rdata_out=0 		 transfer_done=0 		 error=0
# ******** driver_sending time= 410 **********
# transfer   = 1
# write_read = 1
# addr_in    = 913640488
# strb_in    = 0
# PRDATA     = 3951931376
# PREADY     = 1
# PSLVERR    = 0
# ********************************************
# 
# apb_package.apb_driver.start Driver ran at iteration 17				time = 410
# STARTING DRIVER TRASANCTION
# 
# apb_package.apb_monitor.start MONITOR		time =410
# PADDR=0 		 PSEL=0
# PENABLE=0 		 PWRITE=0
# PWDATA=0 		 PSTRB=0
# rdata_out=0 		 transfer_done=0 		 error=0
# ******** driver_sending time= 430 **********
# transfer   = 1
# write_read = 1
# addr_in    = 3567889910
# strb_in    = 0
# PRDATA     = 197216215
# PREADY     = 1
# PSLVERR    = 0
# ********************************************
# 
# apb_package.apb_driver.start Driver ran at iteration 18				time = 430
# STARTING DRIVER TRASANCTION
# 
# apb_package.apb_monitor.start MONITOR		time =430
# PADDR=0 		 PSEL=0
# PENABLE=0 		 PWRITE=0
# PWDATA=0 		 PSTRB=0
# rdata_out=0 		 transfer_done=0 		 error=0
# ******** driver_sending time= 450 **********
# transfer   = 1
# write_read = 1
# addr_in    = 3625304328
# strb_in    = 0
# PRDATA     = 277479827
# PREADY     = 1
# PSLVERR    = 0
# ********************************************
# 
# apb_package.apb_driver.start Driver ran at iteration 19				time = 450
# STARTING DRIVER TRASANCTION
# 
# apb_package.apb_monitor.start MONITOR		time =450
# PADDR=0 		 PSEL=0
# PENABLE=0 		 PWRITE=0
# PWDATA=0 		 PSTRB=0
# rdata_out=0 		 transfer_done=0 		 error=0
# ******** driver_sending time= 470 **********
# transfer   = 1
# write_read = 1
# addr_in    = 1966828203
# strb_in    = 0
# PRDATA     = 2373697215
# PREADY     = 1
# PSLVERR    = 0
# ********************************************
# 
# apb_package.apb_driver.start Driver ran at iteration 20				time = 470
# STARTING DRIVER TRASANCTION
# 
# apb_package.apb_monitor.start MONITOR		time =470
# PADDR=0 		 PSEL=0
# PENABLE=0 		 PWRITE=0
# PWDATA=0 		 PSTRB=0
# rdata_out=0 		 transfer_done=0 		 error=0
# ******** driver_sending time= 490 **********
# transfer   = 1
# write_read = 1
# addr_in    = 26977644
# strb_in    = 0
# PRDATA     = 4087211153
# PREADY     = 1
# PSLVERR    = 0
# ********************************************
# 
# apb_package.apb_driver.start Driver ran at iteration 21				time = 490
# STARTING DRIVER TRASANCTION
# 
# apb_package.apb_monitor.start MONITOR		time =490
# PADDR=0 		 PSEL=0
# PENABLE=0 		 PWRITE=0
# PWDATA=0 		 PSTRB=0
# rdata_out=0 		 transfer_done=0 		 error=0
# ******** driver_sending time= 510 **********
# transfer   = 1
# write_read = 1
# addr_in    = 604891091
# strb_in    = 0
# PRDATA     = 4010495280
# PREADY     = 1
# PSLVERR    = 0
# ********************************************
# 
# apb_package.apb_driver.start Driver ran at iteration 22				time = 510
# STARTING DRIVER TRASANCTION
# 
# apb_package.apb_monitor.start MONITOR		time =510
# PADDR=0 		 PSEL=0
# PENABLE=0 		 PWRITE=0
# PWDATA=0 		 PSTRB=0
# rdata_out=0 		 transfer_done=0 		 error=0
# ******** driver_sending time= 530 **********
# transfer   = 1
# write_read = 1
# addr_in    = 1013402792
# strb_in    = 0
# PRDATA     = 270378948
# PREADY     = 1
# PSLVERR    = 0
# ********************************************
# 
# apb_package.apb_driver.start Driver ran at iteration 23				time = 530
# STARTING DRIVER TRASANCTION
# 
# apb_package.apb_monitor.start MONITOR		time =530
# PADDR=0 		 PSEL=0
# PENABLE=0 		 PWRITE=0
# PWDATA=0 		 PSTRB=0
# rdata_out=0 		 transfer_done=0 		 error=0
# ******** driver_sending time= 550 **********
# transfer   = 1
# write_read = 1
# addr_in    = 3018472747
# strb_in    = 0
# PRDATA     = 3131861941
# PREADY     = 1
# PSLVERR    = 0
# ********************************************
# 
# apb_package.apb_driver.start Driver ran at iteration 24				time = 550
# STARTING DRIVER TRASANCTION
# 
# apb_package.apb_monitor.start MONITOR		time =550
# PADDR=0 		 PSEL=0
# PENABLE=0 		 PWRITE=0
# PWDATA=0 		 PSTRB=0
# rdata_out=0 		 transfer_done=0 		 error=0
# ******** driver_sending time= 570 **********
# transfer   = 1
# write_read = 1
# addr_in    = 1056280472
# strb_in    = 0
# PRDATA     = 817201148
# PREADY     = 1
# PSLVERR    = 0
# ********************************************
# 
# apb_package.apb_driver.start Driver ran at iteration 25				time = 570
# STARTING DRIVER TRASANCTION
# 
# apb_package.apb_monitor.start MONITOR		time =570
# PADDR=0 		 PSEL=0
# PENABLE=0 		 PWRITE=0
# PWDATA=0 		 PSTRB=0
# rdata_out=0 		 transfer_done=0 		 error=0
# ******** driver_sending time= 590 **********
# transfer   = 1
# write_read = 1
# addr_in    = 2025365199
# strb_in    = 0
# PRDATA     = 3649617337
# PREADY     = 1
# PSLVERR    = 0
# ********************************************
# 
# apb_package.apb_driver.start Driver ran at iteration 26				time = 590
# STARTING DRIVER TRASANCTION
# 
# apb_package.apb_monitor.start MONITOR		time =590
# PADDR=0 		 PSEL=0
# PENABLE=0 		 PWRITE=0
# PWDATA=0 		 PSTRB=0
# rdata_out=0 		 transfer_done=0 		 error=0
# ******** driver_sending time= 610 **********
# transfer   = 1
# write_read = 1
# addr_in    = 1231331775
# strb_in    = 0
# PRDATA     = 742323740
# PREADY     = 1
# PSLVERR    = 0
# ********************************************
# 
# apb_package.apb_driver.start Driver ran at iteration 27				time = 610
# STARTING DRIVER TRASANCTION
# 
# apb_package.apb_monitor.start MONITOR		time =610
# PADDR=0 		 PSEL=0
# PENABLE=0 		 PWRITE=0
# PWDATA=0 		 PSTRB=0
# rdata_out=0 		 transfer_done=0 		 error=0
# ******** driver_sending time= 630 **********
# transfer   = 1
# write_read = 1
# addr_in    = 3914128045
# strb_in    = 0
# PRDATA     = 129386383
# PREADY     = 1
# PSLVERR    = 0
# ********************************************
# 
# apb_package.apb_driver.start Driver ran at iteration 28				time = 630
# STARTING DRIVER TRASANCTION
# 
# apb_package.apb_monitor.start MONITOR		time =630
# PADDR=0 		 PSEL=0
# PENABLE=0 		 PWRITE=0
# PWDATA=0 		 PSTRB=0
# rdata_out=0 		 transfer_done=0 		 error=0
# ******** driver_sending time= 650 **********
# transfer   = 1
# write_read = 1
# addr_in    = 724191212
# strb_in    = 0
# PRDATA     = 3841393721
# PREADY     = 1
# PSLVERR    = 0
# ********************************************
# 
# apb_package.apb_driver.start Driver ran at iteration 29				time = 650
# STARTING DRIVER TRASANCTION
# 
# apb_package.apb_monitor.start MONITOR		time =650
# PADDR=0 		 PSEL=0
# PENABLE=0 		 PWRITE=0
# PWDATA=0 		 PSTRB=0
# rdata_out=0 		 transfer_done=0 		 error=0
# ******** driver_sending time= 670 **********
# transfer   = 1
# write_read = 1
# addr_in    = 1821583777
# strb_in    = 0
# PRDATA     = 1682545921
# PREADY     = 1
# PSLVERR    = 0
# ********************************************
# 
# apb_package.apb_driver.start Driver ran at iteration 30				time = 670
# STARTING DRIVER TRASANCTION
# 
# apb_package.apb_monitor.start MONITOR		time =670
# PADDR=0 		 PSEL=0
# PENABLE=0 		 PWRITE=0
# PWDATA=0 		 PSTRB=0
# rdata_out=0 		 transfer_done=0 		 error=0
# ******** driver_sending time= 690 **********
# transfer   = 1
# write_read = 1
# addr_in    = 295199469
# strb_in    = 0
# PRDATA     = 3863879327
# PREADY     = 1
# PSLVERR    = 0
# ********************************************
# 
# apb_package.apb_driver.start Driver ran at iteration 31				time = 690
# STARTING DRIVER TRASANCTION
# 
# apb_package.apb_monitor.start MONITOR		time =690
# PADDR=0 		 PSEL=0
# PENABLE=0 		 PWRITE=0
# PWDATA=0 		 PSTRB=0
# rdata_out=0 		 transfer_done=0 		 error=0
# ******** driver_sending time= 710 **********
# transfer   = 1
# write_read = 1
# addr_in    = 1524517821
# strb_in    = 0
# PRDATA     = 3549544718
# PREADY     = 1
# PSLVERR    = 0
# ********************************************
# 
# apb_package.apb_driver.start Driver ran at iteration 32				time = 710
# STARTING DRIVER TRASANCTION
# 
# apb_package.apb_monitor.start MONITOR		time =710
# PADDR=0 		 PSEL=0
# PENABLE=0 		 PWRITE=0
# PWDATA=0 		 PSTRB=0
# rdata_out=0 		 transfer_done=0 		 error=0
# ******** driver_sending time= 730 **********
# transfer   = 1
# write_read = 1
# addr_in    = 1313106758
# strb_in    = 0
# PRDATA     = 2373043004
# PREADY     = 1
# PSLVERR    = 0
# ********************************************
# 
# apb_package.apb_driver.start Driver ran at iteration 33				time = 730
# STARTING DRIVER TRASANCTION
# 
# apb_package.apb_monitor.start MONITOR		time =730
# PADDR=0 		 PSEL=0
# PENABLE=0 		 PWRITE=0
# PWDATA=0 		 PSTRB=0
# rdata_out=0 		 transfer_done=0 		 error=0
# ******** driver_sending time= 750 **********
# transfer   = 1
# write_read = 1
# addr_in    = 2226239856
# strb_in    = 0
# PRDATA     = 884520967
# PREADY     = 1
# PSLVERR    = 0
# ********************************************
# 
# apb_package.apb_driver.start Driver ran at iteration 34				time = 750
# STARTING DRIVER TRASANCTION
# 
# apb_package.apb_monitor.start MONITOR		time =750
# PADDR=0 		 PSEL=0
# PENABLE=0 		 PWRITE=0
# PWDATA=0 		 PSTRB=0
# rdata_out=0 		 transfer_done=0 		 error=0
# ******** driver_sending time= 770 **********
# transfer   = 1
# write_read = 1
# addr_in    = 3469297611
# strb_in    = 0
# PRDATA     = 834175595
# PREADY     = 1
# PSLVERR    = 0
# ********************************************
# 
# apb_package.apb_driver.start Driver ran at iteration 35				time = 770
# STARTING DRIVER TRASANCTION
# 
# apb_package.apb_monitor.start MONITOR		time =770
# PADDR=0 		 PSEL=0
# PENABLE=0 		 PWRITE=0
# PWDATA=0 		 PSTRB=0
# rdata_out=0 		 transfer_done=0 		 error=0
# ******** driver_sending time= 790 **********
# transfer   = 1
# write_read = 1
# addr_in    = 3526827241
# strb_in    = 0
# PRDATA     = 3569896322
# PREADY     = 1
# PSLVERR    = 0
# ********************************************
# 
# apb_package.apb_driver.start Driver ran at iteration 36				time = 790
# STARTING DRIVER TRASANCTION
# 
# apb_package.apb_monitor.start MONITOR		time =790
# PADDR=0 		 PSEL=0
# PENABLE=0 		 PWRITE=0
# PWDATA=0 		 PSTRB=0
# rdata_out=0 		 transfer_done=0 		 error=0
# ******** driver_sending time= 810 **********
# transfer   = 1
# write_read = 1
# addr_in    = 1858211189
# strb_in    = 0
# PRDATA     = 380251364
# PREADY     = 1
# PSLVERR    = 0
# ********************************************
# 
# apb_package.apb_driver.start Driver ran at iteration 37				time = 810
# STARTING DRIVER TRASANCTION
# 
# apb_package.apb_monitor.start MONITOR		time =810
# PADDR=0 		 PSEL=0
# PENABLE=0 		 PWRITE=0
# PWDATA=0 		 PSTRB=0
# rdata_out=0 		 transfer_done=0 		 error=0
# ******** driver_sending time= 830 **********
# transfer   = 1
# write_read = 1
# addr_in    = 2439523976
# strb_in    = 0
# PRDATA     = 1008634478
# PREADY     = 1
# PSLVERR    = 0
# ********************************************
# 
# apb_package.apb_driver.start Driver ran at iteration 38				time = 830
# STARTING DRIVER TRASANCTION
# 
# apb_package.apb_monitor.start MONITOR		time =830
# PADDR=0 		 PSEL=0
# PENABLE=0 		 PWRITE=0
# PWDATA=0 		 PSTRB=0
# rdata_out=0 		 transfer_done=0 		 error=0
# ******** driver_sending time= 850 **********
# transfer   = 1
# write_read = 1
# addr_in    = 1913457810
# strb_in    = 0
# PRDATA     = 530723062
# PREADY     = 1
# PSLVERR    = 0
# ********************************************
# 
# apb_package.apb_driver.start Driver ran at iteration 39				time = 850
# STARTING DRIVER TRASANCTION
# 
# apb_package.apb_monitor.start MONITOR		time =850
# PADDR=0 		 PSEL=0
# PENABLE=0 		 PWRITE=0
# PWDATA=0 		 PSTRB=0
# rdata_out=0 		 transfer_done=0 		 error=0
# ******** driver_sending time= 870 **********
# transfer   = 1
# write_read = 1
# addr_in    = 4286285512
# strb_in    = 0
# PRDATA     = 1169260000
# PREADY     = 1
# PSLVERR    = 0
# ********************************************
# 
# apb_package.apb_driver.start Driver ran at iteration 40				time = 870
# STARTING DRIVER TRASANCTION
# 
# apb_package.apb_monitor.start MONITOR		time =870
# PADDR=0 		 PSEL=0
# PENABLE=0 		 PWRITE=0
# PWDATA=0 		 PSTRB=0
# rdata_out=0 		 transfer_done=0 		 error=0
# ******** driver_sending time= 890 **********
# transfer   = 1
# write_read = 1
# addr_in    = 252964370
# strb_in    = 0
# PRDATA     = 1908853568
# PREADY     = 1
# PSLVERR    = 0
# ********************************************
# 
# apb_package.apb_driver.start Driver ran at iteration 41				time = 890
# STARTING DRIVER TRASANCTION
# 
# apb_package.apb_monitor.start MONITOR		time =890
# PADDR=0 		 PSEL=0
# PENABLE=0 		 PWRITE=0
# PWDATA=0 		 PSTRB=0
# rdata_out=0 		 transfer_done=0 		 error=0
# ******** driver_sending time= 910 **********
# transfer   = 1
# write_read = 1
# addr_in    = 3466845666
# strb_in    = 0
# PRDATA     = 556334050
# PREADY     = 1
# PSLVERR    = 0
# ********************************************
# 
# apb_package.apb_driver.start Driver ran at iteration 42				time = 910
# STARTING DRIVER TRASANCTION
# 
# apb_package.apb_monitor.start MONITOR		time =910
# PADDR=0 		 PSEL=0
# PENABLE=0 		 PWRITE=0
# PWDATA=0 		 PSTRB=0
# rdata_out=0 		 transfer_done=0 		 error=0
# ******** driver_sending time= 930 **********
# transfer   = 1
# write_read = 1
# addr_in    = 3982684971
# strb_in    = 0
# PRDATA     = 554515237
# PREADY     = 1
# PSLVERR    = 0
# ********************************************
# 
# apb_package.apb_driver.start Driver ran at iteration 43				time = 930
# STARTING DRIVER TRASANCTION
# 
# apb_package.apb_monitor.start MONITOR		time =930
# PADDR=0 		 PSEL=0
# PENABLE=0 		 PWRITE=0
# PWDATA=0 		 PSTRB=0
# rdata_out=0 		 transfer_done=0 		 error=0
# ******** driver_sending time= 950 **********
# transfer   = 1
# write_read = 1
# addr_in    = 2578688619
# strb_in    = 0
# PRDATA     = 3834454103
# PREADY     = 1
# PSLVERR    = 0
# ********************************************
# 
# apb_package.apb_driver.start Driver ran at iteration 44				time = 950
# STARTING DRIVER TRASANCTION
# 
# apb_package.apb_monitor.start MONITOR		time =950
# PADDR=0 		 PSEL=0
# PENABLE=0 		 PWRITE=0
# PWDATA=0 		 PSTRB=0
# rdata_out=0 		 transfer_done=0 		 error=0
# ******** driver_sending time= 970 **********
# transfer   = 1
# write_read = 1
# addr_in    = 3649896511
# strb_in    = 0
# PRDATA     = 1639155218
# PREADY     = 1
# PSLVERR    = 0
# ********************************************
# 
# apb_package.apb_driver.start Driver ran at iteration 45				time = 970
# STARTING DRIVER TRASANCTION
# 
# apb_package.apb_monitor.start MONITOR		time =970
# PADDR=0 		 PSEL=0
# PENABLE=0 		 PWRITE=0
# PWDATA=0 		 PSTRB=0
# rdata_out=0 		 transfer_done=0 		 error=0
# ******** driver_sending time= 990 **********
# transfer   = 1
# write_read = 1
# addr_in    = 2101816668
# strb_in    = 0
# PRDATA     = 1568328278
# PREADY     = 1
# PSLVERR    = 0
# ********************************************
# 
# apb_package.apb_driver.start Driver ran at iteration 46				time = 990
# STARTING DRIVER TRASANCTION
# 
# apb_package.apb_monitor.start MONITOR		time =990
# PADDR=0 		 PSEL=0
# PENABLE=0 		 PWRITE=0
# PWDATA=0 		 PSTRB=0
# rdata_out=0 		 transfer_done=0 		 error=0
# ******** driver_sending time= 1010 **********
# transfer   = 1
# write_read = 1
# addr_in    = 739790877
# strb_in    = 0
# PRDATA     = 2359814405
# PREADY     = 1
# PSLVERR    = 0
# ********************************************
# 
# apb_package.apb_driver.start Driver ran at iteration 47				time = 1010
# STARTING DRIVER TRASANCTION
# 
# apb_package.apb_monitor.start MONITOR		time =1010
# PADDR=0 		 PSEL=0
# PENABLE=0 		 PWRITE=0
# PWDATA=0 		 PSTRB=0
# rdata_out=0 		 transfer_done=0 		 error=0
# ******** driver_sending time= 1030 **********
# transfer   = 1
# write_read = 1
# addr_in    = 1376903042
# strb_in    = 0
# PRDATA     = 3654298535
# PREADY     = 1
# PSLVERR    = 0
# ********************************************
# 
# apb_package.apb_driver.start Driver ran at iteration 48				time = 1030
# STARTING DRIVER TRASANCTION
# 
# apb_package.apb_monitor.start MONITOR		time =1030
# PADDR=0 		 PSEL=0
# PENABLE=0 		 PWRITE=0
# PWDATA=0 		 PSTRB=0
# rdata_out=0 		 transfer_done=0 		 error=0
# ******** driver_sending time= 1050 **********
# transfer   = 1
# write_read = 1
# addr_in    = 1773705043
# strb_in    = 0
# PRDATA     = 206199315
# PREADY     = 1
# PSLVERR    = 0
# ********************************************
# 
# apb_package.apb_driver.start Driver ran at iteration 49				time = 1050
# STARTING DRIVER TRASANCTION
# 
# apb_package.apb_monitor.start MONITOR		time =1050
# PADDR=0 		 PSEL=0
# PENABLE=0 		 PWRITE=0
# PWDATA=0 		 PSTRB=0
# rdata_out=0 		 transfer_done=0 		 error=0
# ******** driver_sending time= 1070 **********
# transfer   = 1
# write_read = 1
# addr_in    = 1551727059
# strb_in    = 0
# PRDATA     = 750645575
# PREADY     = 1
# PSLVERR    = 0
# ********************************************
# 
# apb_package.apb_monitor.start MONITOR		time =1070
# PADDR=0 		 PSEL=0
# PENABLE=0 		 PWRITE=0
# PWDATA=0 		 PSTRB=0
# rdata_out=0 		 transfer_done=0 		 error=0
