# vsim -vopt work.apb_top -voptargs="+acc=npr" -assertdebug -l src/simulation/log_file.log -coverage -c -do "coverage save -onexit -assert -directive -cvg -codeAll src/simulation/ucdb_file.ucdb; run -all; exit" 
# Start time: 09:17:49 on Jul 13,2026
# ** Note: (vsim-8009) Loading existing optimized design _opt5
# //  Questa Sim
# //  Version 10.6c linux Jul 25 2017
# //
# //  Copyright 1991-2017 Mentor Graphics Corporation
# //  All Rights Reserved.
# //
# //  QuestaSim and its associated documentation contain trade
# //  secrets and commercial or financial information that are the property of
# //  Mentor Graphics Corporation and are privileged, confidential,
# //  and exempt from disclosure under the Freedom of Information Act,
# //  5 U.S.C. Section 552. Furthermore, this information
# //  is prohibited from disclosure under the Trade Secrets Act,
# //  18 U.S.C. Section 1905.
# //
# Loading sv_std.std
# Loading work.apb_inf(fast)
# Loading work.apb_package(fast)
# Loading work.apb_top(fast)
# Loading work.apb_inf(fast)
# Loading work.apb_master(fast)
# coverage save -onexit -assert -directive -cvg -codeAll src/simulation/ucdb_file.ucdb
#  run -all
# 
# GENERATOR randomized 0 				time =0
# tula 0
# transfer=1, write_read=0, addr_in=153, wdata_in=a7bf7cdf, strb_in =8
# PRDATA=10f8cea6, PREADY=0, PSLVERR=0
# 
# GENERATOR randomized 1 				time =0
# tula 1
# transfer=1, write_read=0, addr_in=153, wdata_in=a7bf7cdf, strb_in =3
# PRDATA=2cc6144f, PREADY=1, PSLVERR=0
# 
# GENERATOR randomized 2 				time =0
# tula 0
# transfer=1, write_read=0, addr_in= 80, wdata_in=dcad23a9, strb_in =12
# PRDATA=56d7f69f, PREADY=0, PSLVERR=0
# 
# GENERATOR randomized 3 				time =0
# tula 1
# transfer=1, write_read=0, addr_in= 80, wdata_in=dcad23a9, strb_in =12
# PRDATA=adb13787, PREADY=1, PSLVERR=0
# 
# GENERATOR randomized 4 				time =0
# tula 0
# transfer=1, write_read=0, addr_in=145, wdata_in=2c5774ea, strb_in =7
# PRDATA=9592a3d, PREADY=0, PSLVERR=0
# 
# GENERATOR randomized 5 				time =0
# tula 1
# transfer=1, write_read=0, addr_in=145, wdata_in=2c5774ea, strb_in =2
# PRDATA=ae737d04, PREADY=1, PSLVERR=0
# 
# GENERATOR randomized 6 				time =0
# tula 0
# transfer=0, write_read=1, addr_in= 58, wdata_in=1ea1347c, strb_in =6
# PRDATA=a6f9cc7d, PREADY=0, PSLVERR=0
# 
# GENERATOR randomized 7 				time =0
# tula 1
# transfer=0, write_read=1, addr_in= 58, wdata_in=1ea1347c, strb_in =5
# PRDATA=a621c816, PREADY=1, PSLVERR=0
# 
# apb_package.apb_driver.start Driver ran at iteration 0		time = 35
# apb_package.apb_monitor.start MONITOR					time =35
# ----------------------------------------------------------------------------------------
# transfer                 1                    | PADDR                    'h0
# write_read               0                    | PSEL                     0
# addr_in                  'h99                 | PENABLE                  0
# wdata_in                 'ha7bf7cdf           | PWRITE                   0
# strb_in                  'h8                  | PWDATA                   'h0
# PRDATA                   'h10f8cea6           | PSTRB                    'h0
# PREADY                   0                    | rdata_out                'h0
# PSLVERR                  0                    | transfer_done            0
#                                               | error                    0
# ========================================================================================
# apb_package.apb_scoreboard.start SCOREBOARD  				time = 35
# ERROR WARNING ERROR WARNING ERROR WARNING transfer_done=0   trans_cnt=1    cnt=1
# ***************************************************************************************************       DATA COMPARE SUCCESSFUL MATCH=          1
# 
# apb_package.apb_driver.start Driver ran at iteration 0		time = 45
# apb_package.apb_monitor.start MONITOR					time =45
# ----------------------------------------------------------------------------------------
# transfer                 1                    | PADDR                    'h0
# write_read               0                    | PSEL                     1
# addr_in                  'h99                 | PENABLE                  0
# wdata_in                 'ha7bf7cdf           | PWRITE                   0
# strb_in                  'h3                  | PWDATA                   'h0
# PRDATA                   'h2cc6144f           | PSTRB                    'h0
# PREADY                   1                    | rdata_out                'h0
# PSLVERR                  0                    | transfer_done            0
#                                               | error                    0
# ========================================================================================
# apb_package.apb_scoreboard.start SCOREBOARD  				time = 45
# ERROR WARNING ERROR WARNING ERROR WARNING transfer_done=0   trans_cnt=2    cnt=2
# ***************************************************************************************************       DATA COMPARE SUCCESSFUL MATCH=          2
# apb_package.apb_monitor.start MONITOR					time =55
# ----------------------------------------------------------------------------------------
# transfer                 1                    | PADDR                    'h99
# write_read               0                    | PSEL                     1
# addr_in                  'h99                 | PENABLE                  1
# wdata_in                 'ha7bf7cdf           | PWRITE                   0
# strb_in                  'h3                  | PWDATA                   'h0
# PRDATA                   'h2cc6144f           | PSTRB                    'h0
# PREADY                   1                    | rdata_out                'h0
# PSLVERR                  0                    | transfer_done            0
#                                               | error                    0
# ========================================================================================
# apb_package.apb_scoreboard.start SCOREBOARD  				time = 55
# ERROR WARNING ERROR WARNING ERROR WARNING transfer_done=0   trans_cnt=3    cnt=3
# ***************************************************************************************************       DATA COMPARE SUCCESSFUL MATCH=          3
# 
# apb_package.apb_driver.start Driver ran at iteration 1		time = 65
# apb_package.apb_monitor.start MONITOR					time =65
# ----------------------------------------------------------------------------------------
# transfer                 1                    | PADDR                    'h99
# write_read               0                    | PSEL                     0
# addr_in                  'h50                 | PENABLE                  0
# wdata_in                 'hdcad23a9           | PWRITE                   0
# strb_in                  'hc                  | PWDATA                   'h0
# PRDATA                   'h56d7f69f           | PSTRB                    'h0
# PREADY                   0                    | rdata_out                'h2cc6144f
# PSLVERR                  0                    | transfer_done            1
#                                               | error                    0
# ========================================================================================
# apb_package.apb_scoreboard.start SCOREBOARD  				time = 65
# ERROR WARNING ERROR WARNING ERROR WARNING transfer_done=1   trans_cnt=4    cnt=4
# ***************************************************************************************************       DATA COMPARE SUCCESSFUL MATCH=          4
# 
# apb_package.apb_driver.start Driver ran at iteration 1		time = 75
# apb_package.apb_monitor.start MONITOR					time =75
# ----------------------------------------------------------------------------------------
# transfer                 1                    | PADDR                    'h99
# write_read               0                    | PSEL                     1
# addr_in                  'h50                 | PENABLE                  0
# wdata_in                 'hdcad23a9           | PWRITE                   0
# strb_in                  'hc                  | PWDATA                   'h0
# PRDATA                   'hadb13787           | PSTRB                    'h0
# PREADY                   1                    | rdata_out                'h2cc6144f
# PSLVERR                  0                    | transfer_done            0
#                                               | error                    0
# ========================================================================================
# apb_package.apb_scoreboard.start SCOREBOARD  				time = 75
# ERROR WARNING ERROR WARNING ERROR WARNING transfer_done=0   trans_cnt=5    cnt=2
# ***************************************************************************************************       DATA COMPARE SUCCESSFUL MATCH=          5
# apb_package.apb_monitor.start MONITOR					time =85
# ----------------------------------------------------------------------------------------
# transfer                 1                    | PADDR                    'h50
# write_read               0                    | PSEL                     1
# addr_in                  'h50                 | PENABLE                  1
# wdata_in                 'hdcad23a9           | PWRITE                   0
# strb_in                  'hc                  | PWDATA                   'h0
# PRDATA                   'hadb13787           | PSTRB                    'h0
# PREADY                   1                    | rdata_out                'h2cc6144f
# PSLVERR                  0                    | transfer_done            0
#                                               | error                    0
# ========================================================================================
# apb_package.apb_scoreboard.start SCOREBOARD  				time = 85
# ERROR WARNING ERROR WARNING ERROR WARNING transfer_done=0   trans_cnt=6    cnt=3
# ***************************************************************************************************       DATA COMPARE SUCCESSFUL MATCH=          6
# 
# apb_package.apb_driver.start Driver ran at iteration 2		time = 95
# apb_package.apb_monitor.start MONITOR					time =95
# ----------------------------------------------------------------------------------------
# transfer                 1                    | PADDR                    'h50
# write_read               0                    | PSEL                     0
# addr_in                  'h91                 | PENABLE                  0
# wdata_in                 'h2c5774ea           | PWRITE                   0
# strb_in                  'h7                  | PWDATA                   'h0
# PRDATA                   'h9592a3d            | PSTRB                    'h0
# PREADY                   0                    | rdata_out                'hadb13787
# PSLVERR                  0                    | transfer_done            1
#                                               | error                    0
# ========================================================================================
# apb_package.apb_scoreboard.start SCOREBOARD  				time = 95
# ERROR WARNING ERROR WARNING ERROR WARNING transfer_done=1   trans_cnt=7    cnt=4
# ***************************************************************************************************       DATA COMPARE SUCCESSFUL MATCH=          7
# 
# apb_package.apb_driver.start Driver ran at iteration 2		time = 105
# apb_package.apb_monitor.start MONITOR					time =105
# ----------------------------------------------------------------------------------------
# transfer                 1                    | PADDR                    'h50
# write_read               0                    | PSEL                     1
# addr_in                  'h91                 | PENABLE                  0
# wdata_in                 'h2c5774ea           | PWRITE                   0
# strb_in                  'h2                  | PWDATA                   'h0
# PRDATA                   'hae737d04           | PSTRB                    'h0
# PREADY                   1                    | rdata_out                'hadb13787
# PSLVERR                  0                    | transfer_done            0
#                                               | error                    0
# ========================================================================================
# apb_package.apb_scoreboard.start SCOREBOARD  				time = 105
# ERROR WARNING ERROR WARNING ERROR WARNING transfer_done=0   trans_cnt=8    cnt=2
# ***************************************************************************************************       DATA COMPARE SUCCESSFUL MATCH=          8
# apb_package.apb_monitor.start MONITOR					time =115
# ----------------------------------------------------------------------------------------
# transfer                 1                    | PADDR                    'h91
# write_read               0                    | PSEL                     1
# addr_in                  'h91                 | PENABLE                  1
# wdata_in                 'h2c5774ea           | PWRITE                   0
# strb_in                  'h2                  | PWDATA                   'h0
# PRDATA                   'hae737d04           | PSTRB                    'h0
# PREADY                   1                    | rdata_out                'hadb13787
# PSLVERR                  0                    | transfer_done            0
#                                               | error                    0
# ========================================================================================
# apb_package.apb_scoreboard.start SCOREBOARD  				time = 115
# ERROR WARNING ERROR WARNING ERROR WARNING transfer_done=0   trans_cnt=9    cnt=3
# ***************************************************************************************************       DATA COMPARE SUCCESSFUL MATCH=          9
# 
# apb_package.apb_driver.start Driver ran at iteration 3		time = 125
# apb_package.apb_monitor.start MONITOR					time =125
# ----------------------------------------------------------------------------------------
# transfer                 0                    | PADDR                    'h91
# write_read               1                    | PSEL                     0
# addr_in                  'h3a                 | PENABLE                  0
# wdata_in                 'h1ea1347c           | PWRITE                   0
# strb_in                  'h6                  | PWDATA                   'h0
# PRDATA                   'ha6f9cc7d           | PSTRB                    'h0
# PREADY                   0                    | rdata_out                'hae737d04
# PSLVERR                  0                    | transfer_done            1
#                                               | error                    0
# ========================================================================================
# apb_package.apb_scoreboard.start SCOREBOARD  				time = 125
# ERROR WARNING ERROR WARNING ERROR WARNING transfer_done=1   trans_cnt=10    cnt=4
# ***************************************************************************************************       DATA COMPARE SUCCESSFUL MATCH=         10
# 
# apb_package.apb_driver.start Driver ran at iteration 3		time = 135
# apb_package.apb_monitor.start MONITOR					time =135
# ----------------------------------------------------------------------------------------
# transfer                 0                    | PADDR                    'h91
# write_read               1                    | PSEL                     0
# addr_in                  'h3a                 | PENABLE                  0
# wdata_in                 'h1ea1347c           | PWRITE                   0
# strb_in                  'h5                  | PWDATA                   'h0
# PRDATA                   'ha621c816           | PSTRB                    'h0
# PREADY                   1                    | rdata_out                'hae737d04
# PSLVERR                  0                    | transfer_done            0
#                                               | error                    0
# ========================================================================================
# apb_package.apb_scoreboard.start SCOREBOARD  				time = 135
# ERROR WARNING ERROR WARNING ERROR WARNING transfer_done=0   trans_cnt=11    cnt=1
# ***************************************************************************************************       DATA COMPARE SUCCESSFUL MATCH=         11
# apb_package.apb_monitor.start MONITOR					time =145
# ----------------------------------------------------------------------------------------
# transfer                 0                    | PADDR                    'h91
# write_read               1                    | PSEL                     0
# addr_in                  'h3a                 | PENABLE                  0
# wdata_in                 'h1ea1347c           | PWRITE                   0
# strb_in                  'h5                  | PWDATA                   'h0
# PRDATA                   'ha621c816           | PSTRB                    'h0
# PREADY                   1                    | rdata_out                'hae737d04
# PSLVERR                  0                    | transfer_done            0
#                                               | error                    0
# ========================================================================================
# apb_package.apb_scoreboard.start SCOREBOARD  				time = 145
# ERROR WARNING ERROR WARNING ERROR WARNING transfer_done=0   trans_cnt=12    cnt=1
# ***************************************************************************************************       DATA COMPARE SUCCESSFUL MATCH=         12
# apb_package.apb_monitor.start MONITOR					time =155
# ----------------------------------------------------------------------------------------
# transfer                 0                    | PADDR                    'h91
# write_read               1                    | PSEL                     0
# addr_in                  'h3a                 | PENABLE                  0
# wdata_in                 'h1ea1347c           | PWRITE                   0
# strb_in                  'h5                  | PWDATA                   'h0
# PRDATA                   'ha621c816           | PSTRB                    'h0
# PREADY                   1                    | rdata_out                'hae737d04
# PSLVERR                  0                    | transfer_done            0
#                                               | error                    0
# ========================================================================================
# apb_package.apb_scoreboard.start SCOREBOARD  				time = 155
# ERROR WARNING ERROR WARNING ERROR WARNING transfer_done=0   trans_cnt=13    cnt=1
# ***************************************************************************************************       DATA COMPARE SUCCESSFUL MATCH=         13
# apb_package.apb_monitor.start MONITOR					time =165
# ----------------------------------------------------------------------------------------
# transfer                 0                    | PADDR                    'h91
# write_read               1                    | PSEL                     0
# addr_in                  'h3a                 | PENABLE                  0
# wdata_in                 'h1ea1347c           | PWRITE                   0
# strb_in                  'h5                  | PWDATA                   'h0
# PRDATA                   'ha621c816           | PSTRB                    'h0
# PREADY                   1                    | rdata_out                'hae737d04
# PSLVERR                  0                    | transfer_done            0
#                                               | error                    0
# ========================================================================================
# apb_package.apb_scoreboard.start SCOREBOARD  				time = 165
# ERROR WARNING ERROR WARNING ERROR WARNING transfer_done=0   trans_cnt=14    cnt=1
# ***************************************************************************************************       DATA COMPARE SUCCESSFUL MATCH=         14
# apb_package.apb_monitor.start MONITOR					time =175
# ----------------------------------------------------------------------------------------
# transfer                 0                    | PADDR                    'h91
# write_read               1                    | PSEL                     0
# addr_in                  'h3a                 | PENABLE                  0
# wdata_in                 'h1ea1347c           | PWRITE                   0
# strb_in                  'h5                  | PWDATA                   'h0
# PRDATA                   'ha621c816           | PSTRB                    'h0
# PREADY                   1                    | rdata_out                'hae737d04
# PSLVERR                  0                    | transfer_done            0
#                                               | error                    0
# ========================================================================================
# apb_package.apb_scoreboard.start SCOREBOARD  				time = 175
# ERROR WARNING ERROR WARNING ERROR WARNING transfer_done=0   trans_cnt=15    cnt=1
# ***************************************************************************************************       DATA COMPARE SUCCESSFUL MATCH=         15
# apb_package.apb_monitor.start MONITOR					time =185
# ----------------------------------------------------------------------------------------
# transfer                 0                    | PADDR                    'h91
# write_read               1                    | PSEL                     0
# addr_in                  'h3a                 | PENABLE                  0
# wdata_in                 'h1ea1347c           | PWRITE                   0
# strb_in                  'h5                  | PWDATA                   'h0
# PRDATA                   'ha621c816           | PSTRB                    'h0
# PREADY                   1                    | rdata_out                'hae737d04
# PSLVERR                  0                    | transfer_done            0
#                                               | error                    0
# ========================================================================================
# apb_package.apb_scoreboard.start SCOREBOARD  				time = 185
# ERROR WARNING ERROR WARNING ERROR WARNING transfer_done=0   trans_cnt=16    cnt=1
# ***************************************************************************************************       DATA COMPARE SUCCESSFUL MATCH=         16
# **********************************************************************************************************************************
# ****************     TOTAL MATCH = 16        *******************************    TOTAL MISMATCH = 0    ***********************
# **********************************************************************************************************************************
# ** Note: $finish    : src/verification/apb_top.sv(41)
#    Time: 195 ns  Iteration: 3  Instance: /apb_top
# Saving coverage database on exit...
# End time: 09:17:51 on Jul 13,2026, Elapsed time: 0:00:02
# Errors: 0, Warnings: 0
